 frequency   v(VOUT1)    v(VOUT1)   
 1.0000e+00  1.0000e+00 -6.2961e-10 
 1.1220e+00  1.0000e+00 -7.0644e-10 
 1.2589e+00  1.0000e+00 -7.9264e-10 
 1.4125e+00  1.0000e+00 -8.8935e-10 
 1.5849e+00  1.0000e+00 -9.9787e-10 
 1.7783e+00  1.0000e+00 -1.1196e-09 
 1.9953e+00  1.0000e+00 -1.2562e-09 
 2.2387e+00  1.0000e+00 -1.4095e-09 
 2.5119e+00  1.0000e+00 -1.5815e-09 
 2.8184e+00  1.0000e+00 -1.7745e-09 
 3.1623e+00  1.0000e+00 -1.9910e-09 
 3.5481e+00  1.0000e+00 -2.2340e-09 
 3.9811e+00  1.0000e+00 -2.5065e-09 
 4.4668e+00  1.0000e+00 -2.8124e-09 
 5.0119e+00  1.0000e+00 -3.1555e-09 
 5.6234e+00  1.0000e+00 -3.5406e-09 
 6.3096e+00  1.0000e+00 -3.9726e-09 
 7.0795e+00  1.0000e+00 -4.4573e-09 
 7.9433e+00  1.0000e+00 -5.0012e-09 
 8.9125e+00  1.0000e+00 -5.6114e-09 
 1.0000e+01  1.0000e+00 -6.2961e-09 
 1.1220e+01  1.0000e+00 -7.0644e-09 
 1.2589e+01  1.0000e+00 -7.9264e-09 
 1.4125e+01  1.0000e+00 -8.8935e-09 
 1.5849e+01  1.0000e+00 -9.9787e-09 
 1.7783e+01  1.0000e+00 -1.1196e-08 
 1.9953e+01  1.0000e+00 -1.2562e-08 
 2.2387e+01  1.0000e+00 -1.4095e-08 
 2.5119e+01  1.0000e+00 -1.5815e-08 
 2.8184e+01  1.0000e+00 -1.7745e-08 
 3.1623e+01  1.0000e+00 -1.9910e-08 
 3.5481e+01  1.0000e+00 -2.2340e-08 
 3.9811e+01  1.0000e+00 -2.5065e-08 
 4.4668e+01  1.0000e+00 -2.8124e-08 
 5.0119e+01  1.0000e+00 -3.1555e-08 
 5.6234e+01  1.0000e+00 -3.5406e-08 
 6.3096e+01  1.0000e+00 -3.9726e-08 
 7.0795e+01  1.0000e+00 -4.4573e-08 
 7.9433e+01  1.0000e+00 -5.0012e-08 
 8.9125e+01  1.0000e+00 -5.6114e-08 
 1.0000e+02  1.0000e+00 -6.2961e-08 
 1.1220e+02  1.0000e+00 -7.0644e-08 
 1.2589e+02  1.0000e+00 -7.9264e-08 
 1.4125e+02  1.0000e+00 -8.8935e-08 
 1.5849e+02  1.0000e+00 -9.9787e-08 
 1.7783e+02  1.0000e+00 -1.1196e-07 
 1.9953e+02  1.0000e+00 -1.2562e-07 
 2.2387e+02  1.0000e+00 -1.4095e-07 
 2.5119e+02  1.0000e+00 -1.5815e-07 
 2.8184e+02  1.0000e+00 -1.7745e-07 
 3.1623e+02  1.0000e+00 -1.9910e-07 
 3.5481e+02  1.0000e+00 -2.2340e-07 
 3.9811e+02  1.0000e+00 -2.5065e-07 
 4.4668e+02  1.0000e+00 -2.8124e-07 
 5.0119e+02  1.0000e+00 -3.1555e-07 
 5.6234e+02  1.0000e+00 -3.5406e-07 
 6.3096e+02  1.0000e+00 -3.9726e-07 
 7.0795e+02  1.0000e+00 -4.4573e-07 
 7.9433e+02  1.0000e+00 -5.0012e-07 
 8.9125e+02  1.0000e+00 -5.6114e-07 
 1.0000e+03  1.0000e+00 -6.2961e-07 
 1.1220e+03  1.0000e+00 -7.0644e-07 
 1.2589e+03  1.0000e+00 -7.9264e-07 
 1.4125e+03  1.0000e+00 -8.8935e-07 
 1.5849e+03  1.0000e+00 -9.9787e-07 
 1.7783e+03  1.0000e+00 -1.1196e-06 
 1.9953e+03  1.0000e+00 -1.2562e-06 
 2.2387e+03  1.0000e+00 -1.4095e-06 
 2.5119e+03  1.0000e+00 -1.5815e-06 
 2.8184e+03  1.0000e+00 -1.7745e-06 
 3.1623e+03  1.0000e+00 -1.9910e-06 
 3.5481e+03  1.0000e+00 -2.2340e-06 
 3.9811e+03  1.0000e+00 -2.5065e-06 
 4.4668e+03  1.0000e+00 -2.8124e-06 
 5.0119e+03  1.0000e+00 -3.1555e-06 
 5.6234e+03  1.0000e+00 -3.5406e-06 
 6.3096e+03  1.0000e+00 -3.9726e-06 
 7.0795e+03  1.0000e+00 -4.4573e-06 
 7.9433e+03  1.0000e+00 -5.0012e-06 
 8.9125e+03  1.0000e+00 -5.6114e-06 
 1.0000e+04  1.0000e+00 -6.2961e-06 
 1.1220e+04  1.0000e+00 -7.0644e-06 
 1.2589e+04  1.0000e+00 -7.9264e-06 
 1.4125e+04  1.0000e+00 -8.8935e-06 
 1.5849e+04  1.0000e+00 -9.9787e-06 
 1.7783e+04  1.0000e+00 -1.1196e-05 
 1.9953e+04  1.0000e+00 -1.2562e-05 
 2.2387e+04  1.0000e+00 -1.4095e-05 
 2.5119e+04  1.0000e+00 -1.5815e-05 
 2.8184e+04  1.0000e+00 -1.7745e-05 
 3.1623e+04  1.0000e+00 -1.9910e-05 
 3.5481e+04  1.0000e+00 -2.2340e-05 
 3.9811e+04  1.0000e+00 -2.5065e-05 
 4.4668e+04  1.0000e+00 -2.8124e-05 
 5.0119e+04  1.0000e+00 -3.1555e-05 
 5.6234e+04  1.0000e+00 -3.5406e-05 
 6.3096e+04  1.0000e+00 -3.9726e-05 
 7.0795e+04  1.0000e+00 -4.4573e-05 
 7.9433e+04  1.0000e+00 -5.0012e-05 
 8.9125e+04  1.0000e+00 -5.6114e-05 
 1.0000e+05  1.0000e+00 -6.2961e-05 
 1.1220e+05  1.0000e+00 -7.0644e-05 
 1.2589e+05  1.0000e+00 -7.9264e-05 
 1.4125e+05  1.0000e+00 -8.8935e-05 
 1.5849e+05  1.0000e+00 -9.9787e-05 
 1.7783e+05  1.0000e+00 -1.1196e-04 
 1.9953e+05  1.0000e+00 -1.2562e-04 
 2.2387e+05  1.0000e+00 -1.4095e-04 
 2.5119e+05  1.0000e+00 -1.5815e-04 
 2.8184e+05  1.0000e+00 -1.7745e-04 
 3.1623e+05  1.0000e+00 -1.9910e-04 
 3.5481e+05  1.0000e+00 -2.2340e-04 
 3.9811e+05  1.0000e+00 -2.5065e-04 
 4.4668e+05  1.0000e+00 -2.8124e-04 
 5.0119e+05  1.0000e+00 -3.1555e-04 
 5.6234e+05  1.0000e+00 -3.5406e-04 
 6.3096e+05  1.0000e+00 -3.9726e-04 
 7.0795e+05  1.0000e+00 -4.4573e-04 
 7.9433e+05  1.0000e+00 -5.0012e-04 
 8.9125e+05  1.0000e+00 -5.6114e-04 
 1.0000e+06  1.0000e+00 -6.2961e-04 
 1.1220e+06  1.0000e+00 -7.0644e-04 
 1.2589e+06  1.0000e+00 -7.9264e-04 
 1.4125e+06  1.0000e+00 -8.8936e-04 
 1.5849e+06  1.0000e+00 -9.9787e-04 
 1.7783e+06  1.0000e+00 -1.1196e-03 
 1.9953e+06  1.0000e+00 -1.2563e-03 
 2.2387e+06  1.0000e+00 -1.4095e-03 
 2.5119e+06  1.0000e+00 -1.5815e-03 
 2.8184e+06  1.0000e+00 -1.7745e-03 
 3.1623e+06  1.0000e+00 -1.9910e-03 
 3.5481e+06  1.0000e+00 -2.2340e-03 
 3.9811e+06  1.0000e+00 -2.5066e-03 
 4.4668e+06  1.0000e+00 -2.8124e-03 
 5.0119e+06  1.0000e+00 -3.1556e-03 
 5.6234e+06  9.9999e-01 -3.5407e-03 
 6.3096e+06  9.9999e-01 -3.9727e-03 
 7.0795e+06  9.9999e-01 -4.4575e-03 
 7.9433e+06  9.9998e-01 -5.0015e-03 
 8.9125e+06  9.9998e-01 -5.6118e-03 
 1.0000e+07  9.9997e-01 -6.2967e-03 
 1.1220e+07  9.9996e-01 -7.0651e-03 
 1.2589e+07  9.9995e-01 -7.9274e-03 
 1.4125e+07  9.9993e-01 -8.8949e-03 
 1.5849e+07  9.9991e-01 -9.9804e-03 
 1.7783e+07  9.9989e-01 -1.1199e-02 
 1.9953e+07  9.9986e-01 -1.2565e-02 
 2.2387e+07  9.9982e-01 -1.4099e-02 
 2.5119e+07  9.9977e-01 -1.5819e-02 
 2.8184e+07  9.9970e-01 -1.7750e-02 
 3.1623e+07  9.9962e-01 -1.9915e-02 
 3.5481e+07  9.9952e-01 -2.2344e-02 
 3.9811e+07  9.9939e-01 -2.5069e-02 
 4.4668e+07  9.9923e-01 -2.8125e-02 
 5.0119e+07  9.9903e-01 -3.1552e-02 
 5.6234e+07  9.9877e-01 -3.5395e-02 
 6.3096e+07  9.9845e-01 -3.9703e-02 
 7.0795e+07  9.9804e-01 -4.4531e-02 
 7.9433e+07  9.9753e-01 -4.9940e-02 
 8.9125e+07  9.9688e-01 -5.5999e-02 
 1.0000e+08  9.9607e-01 -6.2782e-02 
 1.1220e+08  9.9505e-01 -7.0372e-02 
 1.2589e+08  9.9377e-01 -7.8858e-02 
 1.4125e+08  9.9216e-01 -8.8339e-02 
 1.5849e+08  9.9015e-01 -9.8917e-02 
 1.7783e+08  9.8762e-01 -1.1070e-01 
 1.9953e+08  9.8446e-01 -1.2382e-01 
 2.2387e+08  9.8050e-01 -1.3837e-01 
 2.5119e+08  9.7557e-01 -1.5447e-01 
 2.8184e+08  9.6943e-01 -1.7223e-01 
 3.1623e+08  9.6181e-01 -1.9172e-01 
 3.5481e+08  9.5239e-01 -2.1301e-01 
 3.9811e+08  9.4078e-01 -2.3609e-01 
 4.4668e+08  9.2657e-01 -2.6089e-01 
 5.0119e+08  9.0927e-01 -2.8726e-01 
 5.6234e+08  8.8840e-01 -3.1492e-01 
 6.3096e+08  8.6344e-01 -3.4342e-01 
 7.0795e+08  8.3395e-01 -3.7216e-01 
 7.9433e+08  7.9957e-01 -4.0035e-01 
 8.9125e+08  7.6011e-01 -4.2704e-01 
 1.0000e+09  7.1566e-01 -4.5112e-01 
 1.1220e+09  6.6658e-01 -4.7146e-01 
 1.2589e+09  6.1360e-01 -4.8694e-01 
 1.4125e+09  5.5779e-01 -4.9666e-01 
 1.5849e+09  5.0049e-01 -5.0001e-01 
 1.7783e+09  4.4317e-01 -4.9677e-01 
 1.9953e+09  3.8732e-01 -4.8715e-01 
 2.2387e+09  3.3429e-01 -4.7175e-01 
 2.5119e+09  2.8514e-01 -4.5149e-01 
 2.8184e+09  2.4061e-01 -4.2746e-01 
 3.1623e+09  2.0107e-01 -4.0081e-01 
 3.5481e+09  1.6660e-01 -3.7263e-01 
 3.9811e+09  1.3703e-01 -3.4389e-01 
 4.4668e+09  1.1201e-01 -3.1538e-01 
 5.0119e+09  9.1068e-02 -2.8771e-01 
 5.6234e+09  7.3719e-02 -2.6132e-01 
 6.3096e+09  5.9458e-02 -2.3648e-01 
 7.0795e+09  4.7814e-02 -2.1338e-01 
 7.9433e+09  3.8357e-02 -1.9206e-01 
 8.9125e+09  3.0711e-02 -1.7253e-01 
 1.0000e+10  2.4549e-02 -1.5475e-01 
