 frequency      v(net29_sense) v(net29_sense) frequency      v(net29_gate)  v(net29_gate) 
 1.0000000e+00 -1.0559924e-01 -1.4302678e-07  1.0000000e+00  1.0000000e+00  3.6834496e-17 
 1.2589254e+00 -1.0559924e-01 -1.1282868e-07  1.2589254e+00  1.0000000e+00  2.9258680e-17 
 1.5848932e+00 -1.0559924e-01 -8.8639118e-08  1.5848932e+00  1.0000000e+00  2.3240996e-17 
 1.9952623e+00 -1.0559924e-01 -6.9169913e-08  1.9952623e+00  1.0000000e+00  1.8460979e-17 
 2.5118864e+00 -1.0559924e-01 -5.3384258e-08  2.5118864e+00  1.0000000e+00  1.4664077e-17 
 3.1622777e+00 -1.0559924e-01 -4.0441509e-08  3.1622777e+00  1.0000000e+00  1.1648090e-17 
 3.9810717e+00 -1.0559924e-01 -2.9652418e-08  3.9810717e+00  1.0000000e+00  9.2524071e-18 
 5.0118723e+00 -1.0559924e-01 -2.0442427e-08  5.0118723e+00  1.0000000e+00  7.3494482e-18 
 6.3095734e+00 -1.0559924e-01 -1.2321069e-08  6.3095734e+00  1.0000000e+00  5.8378742e-18 
 7.9432823e+00 -1.0559924e-01 -4.8558535e-09  7.9432823e+00  1.0000000e+00  4.6371883e-18 
 1.0000000e+01 -1.0559924e-01  2.3507704e-09  1.0000000e+01  1.0000000e+00  3.6834496e-18 
 1.2589254e+01 -1.0559924e-01  9.6825813e-09  1.2589254e+01  1.0000000e+00  2.9258680e-18 
 1.5848932e+01 -1.0559924e-01  1.7530025e-08  1.5848932e+01  1.0000000e+00  2.3240996e-18 
 1.9952623e+01 -1.0559924e-01  2.6311006e-08  1.9952623e+01  1.0000000e+00  1.8460979e-18 
 2.5118864e+01 -1.0559924e-01  3.6493145e-08  2.5118864e+01  1.0000000e+00  1.4664077e-18 
 3.1622777e+01 -1.0559924e-01  4.8618676e-08  3.1622777e+01  1.0000000e+00  1.1648090e-18 
 3.9810717e+01 -1.0559924e-01  6.3333330e-08  3.9810717e+01  1.0000000e+00  9.2524071e-19 
 5.0118723e+01 -1.0559924e-01  8.1420714e-08  5.0118723e+01  1.0000000e+00  7.3494482e-19 
 6.3095734e+01 -1.0559924e-01  1.0384405e-07  6.3095734e+01  1.0000000e+00  5.8378742e-19 
 7.9432823e+01 -1.0559924e-01  1.3179746e-07  7.9432823e+01  1.0000000e+00  4.6371883e-19 
 1.0000000e+02 -1.0559924e-01  1.6676956e-07  1.0000000e+02  1.0000000e+00  3.6834496e-19 
 1.2589254e+02 -1.0559924e-01  2.1062275e-07  1.2589254e+02  1.0000000e+00  2.9258680e-19 
 1.5848932e+02 -1.0559924e-01  2.6569237e-07  1.5848932e+02  1.0000000e+00  2.3240996e-19 
 1.9952623e+02 -1.0559924e-01  3.3491108e-07  1.9952623e+02  1.0000000e+00  1.8460979e-19 
 2.5118864e+02 -1.0559924e-01  4.2196502e-07  2.5118864e+02  1.0000000e+00  1.4664077e-19 
 3.1622777e+02 -1.0559924e-01  5.3149014e-07  3.1622777e+02  1.0000000e+00  1.1648090e-19 
 3.9810717e+02 -1.0559924e-01  6.6931905e-07  3.9810717e+02  1.0000000e+00  9.2524071e-20 
 5.0118723e+02 -1.0559924e-01  8.4279164e-07  5.0118723e+02  1.0000000e+00  7.3494482e-20 
 6.3095734e+02 -1.0559924e-01  1.0611460e-06  6.3095734e+02  1.0000000e+00  5.8378742e-20 
 7.9432823e+02 -1.0559924e-01  1.3360102e-06  7.9432823e+02  1.0000000e+00  4.6371883e-20 
 1.0000000e+03 -1.0559924e-01  1.6820218e-06  1.0000000e+03  1.0000000e+00  3.6834496e-20 
 1.2589254e+03 -1.0559924e-01  2.1176072e-06  1.2589254e+03  1.0000000e+00  2.9258680e-20 
 1.5848932e+03 -1.0559923e-01  2.6659629e-06  1.5848932e+03  1.0000000e+00  2.3240996e-20 
 1.9952623e+03 -1.0559923e-01  3.3562909e-06  1.9952623e+03  1.0000000e+00  1.8460979e-20 
 2.5118864e+03 -1.0559923e-01  4.2253536e-06  2.5118864e+03  1.0000000e+00  1.4664077e-20 
 3.1622777e+03 -1.0559923e-01  5.3194317e-06  3.1622777e+03  1.0000000e+00  1.1648090e-20 
 3.9810717e+03 -1.0559923e-01  6.6967890e-06  3.9810717e+03  1.0000000e+00  9.2524071e-21 
 5.0118723e+03 -1.0559923e-01  8.4307748e-06  5.0118723e+03  1.0000000e+00  7.3494482e-21 
 6.3095734e+03 -1.0559923e-01  1.0613730e-05  6.3095734e+03  1.0000000e+00  5.8378742e-21 
 7.9432823e+03 -1.0559923e-01  1.3361905e-05  7.9432823e+03  1.0000000e+00  4.6371883e-21 
 1.0000000e+04 -1.0559923e-01  1.6821650e-05  1.0000000e+04  1.0000000e+00  3.6834496e-21 
 1.2589254e+04 -1.0559923e-01  2.1177209e-05  1.2589254e+04  1.0000000e+00  2.9258680e-21 
 1.5848932e+04 -1.0559923e-01  2.6660531e-05  1.5848932e+04  1.0000000e+00  2.3240996e-21 
 1.9952623e+04 -1.0559922e-01  3.3563624e-05  1.9952623e+04  1.0000000e+00  1.8460979e-21 
 2.5118864e+04 -1.0559922e-01  4.2254100e-05  2.5118864e+04  1.0000000e+00  1.4664077e-21 
 3.1622777e+04 -1.0559921e-01  5.3194757e-05  3.1622777e+04  1.0000000e+00  1.1648091e-21 
 3.9810717e+04 -1.0559919e-01  6.6968224e-05  3.9810717e+04  1.0000000e+00  9.2524072e-22 
 5.0118723e+04 -1.0559917e-01  8.4307982e-05  5.0118723e+04  1.0000000e+00  7.3494483e-22 
 6.3095734e+04 -1.0559913e-01  1.0613742e-04  6.3095734e+04  1.0000000e+00  5.8378744e-22 
 7.9432823e+04 -1.0559907e-01  1.3361903e-04  7.9432823e+04  1.0000000e+00  4.6371885e-22 
 1.0000000e+05 -1.0559897e-01  1.6821623e-04  1.0000000e+05  1.0000000e+00  3.6834499e-22 
 1.2589254e+05 -1.0559882e-01  2.1177139e-04  1.2589254e+05  1.0000000e+00  2.9258684e-22 
 1.5848932e+05 -1.0559857e-01  2.6660378e-04  1.5848932e+05  1.0000000e+00  2.3241000e-22 
 1.9952623e+05 -1.0559819e-01  3.3563306e-04  1.9952623e+05  1.0000000e+00  1.8460984e-22 
 2.5118864e+05 -1.0559757e-01  4.2253457e-04  2.5118864e+05  1.0000000e+00  1.4664084e-22 
 3.1622777e+05 -1.0559660e-01  5.3193469e-04  3.1622777e+05  1.0000000e+00  1.1648099e-22 
 3.9810717e+05 -1.0559506e-01  6.6965649e-04  3.9810717e+05  1.0000000e+00  9.2524175e-23 
 5.0118723e+05 -1.0559261e-01  8.4302839e-04  5.0118723e+05  1.0000000e+00  7.3494613e-23 
 6.3095734e+05 -1.0558874e-01  1.0612716e-03  6.3095734e+05  1.0000000e+00  5.8378907e-23 
 7.9432823e+05 -1.0558261e-01  1.3359854e-03  7.9432823e+05  1.0000000e+00  4.6372090e-23 
 1.0000000e+06 -1.0557288e-01  1.6817537e-03  1.0000000e+06  1.0000000e+00  3.6834757e-23 
 1.2589254e+06 -1.0555747e-01  2.1168985e-03  1.2589254e+06  1.0000000e+00  2.9259008e-23 
 1.5848932e+06 -1.0553306e-01  2.6644113e-03  1.5848932e+06  1.0000000e+00  2.3241409e-23 
 1.9952623e+06 -1.0549440e-01  3.3530865e-03  1.9952623e+06  1.0000000e+00  1.8461499e-23 
 2.5118864e+06 -1.0543318e-01  4.2188767e-03  2.5118864e+06  1.0000000e+00  1.4664731e-23 
 3.1622777e+06 -1.0533629e-01  5.3064512e-03  3.1622777e+06  1.0000000e+00  1.1648913e-23 
 3.9810717e+06 -1.0518309e-01  6.6708716e-03  3.9810717e+06  1.0000000e+00  9.2534415e-24 
 5.0118723e+06 -1.0494118e-01  8.3791362e-03  5.0118723e+06  1.0000000e+00  7.3507475e-24 
 6.3095734e+06 -1.0456001e-01  1.0511031e-02  6.3095734e+06  1.0000000e+00  5.8395042e-24 
 7.9432823e+06 -1.0396144e-01  1.3158119e-02  7.9432823e+06  1.0000000e+00  4.6392291e-24 
 1.0000000e+07 -1.0302645e-01  1.6418617e-02  1.0000000e+07  1.0000000e+00  3.6859967e-24 
 1.2589254e+07 -1.0157798e-01  2.0384146e-02  1.2589254e+07  1.0000000e+00  2.9290314e-24 
 1.5848932e+07 -9.9362547e-02  2.5112058e-02  1.5848932e+07  1.0000000e+00  2.3279988e-24 
 1.9952623e+07 -9.6039426e-02  3.0575486e-02  1.9952623e+07  1.0000000e+00  1.8508495e-24 
 2.5118864e+07 -9.1197690e-02  3.6586996e-02  2.5118864e+07  1.0000000e+00  1.4721013e-24 
 3.1622777e+07 -8.4434199e-02  4.2709685e-02  3.1622777e+07  1.0000000e+00  1.1714699e-24 
 3.9810717e+07 -7.5521570e-02  4.8209779e-02  3.9810717e+07  1.0000000e+00  9.3278522e-25 
 5.0118723e+07 -6.4638402e-02  5.2147552e-02  5.0118723e+07  1.0000000e+00  7.4314988e-25 
 6.3095734e+07 -5.2520367e-02  5.3671752e-02  6.3095734e+07  1.0000000e+00  5.9230459e-25 
 7.9432823e+07 -4.0338504e-02  5.2409624e-02  7.9432823e+07  1.0000000e+00  4.7214759e-25 
 1.0000000e+08 -2.9288170e-02  4.8668012e-02  1.0000000e+08  1.0000000e+00  3.7633664e-25 
 1.2589254e+08 -2.0160316e-02  4.3266186e-02  1.2589254e+08  1.0000000e+00  2.9992347e-25 
 1.5848932e+08 -1.3186218e-02  3.7150737e-02  1.5848932e+08  1.0000000e+00  2.3902538e-25 
 1.9952623e+08 -8.1690345e-03  3.1082670e-02  1.9952623e+08  1.0000000e+00  1.9056342e-25 
 2.5118864e+08 -4.7145206e-03  2.5527112e-02  2.5118864e+08  1.0000000e+00  1.5207541e-25 
 3.1622777e+08 -2.4081880e-03  2.0691521e-02  3.1622777e+08  1.0000000e+00  1.2158654e-25 
 3.9810717e+08 -9.0157865e-04  1.6613675e-02  3.9810717e+08  1.0000000e+00  9.7515249e-26 
 5.0118723e+08  6.6063843e-05  1.3240422e-02  5.0118723e+08  1.0000000e+00  7.8599313e-26 
 6.3095734e+08  6.7670997e-04  1.0480331e-02  6.3095734e+08  1.0000000e+00  6.3834731e-26 
 7.9432823e+08  1.0514394e-03  8.2334841e-03  7.9432823e+08  1.0000000e+00  5.2423157e-26 
 1.0000000e+09  1.2675946e-03  6.4063095e-03  1.0000000e+09  1.0000000e+00  4.3724809e-26 
 1.2589254e+09  1.3723009e-03  4.9181475e-03  1.2589254e+09  1.0000000e+00  3.7213711e-26 
 1.5848932e+09  1.3925460e-03  3.7038301e-03  1.5848932e+09  1.0000000e+00  3.2433122e-26 
 1.9952623e+09  1.3431429e-03  2.7144474e-03  1.9952623e+09  1.0000000e+00  2.8953230e-26 
 2.5118864e+09  1.2339446e-03  1.9166498e-03  2.5118864e+09  1.0000000e+00  2.6342655e-26 
 3.1622777e+09  1.0765741e-03  1.2894699e-03  3.1622777e+09  1.0000000e+00  2.4175438e-26 
 3.9810717e+09  8.8883050e-04  8.1781696e-04  3.9810717e+09  1.0000000e+00  2.2088242e-26 
 5.0118723e+09  6.9386153e-04  4.8453010e-04  5.0118723e+09  1.0000000e+00  1.9862545e-26 
 6.3095734e+09  5.1401743e-04  2.6578548e-04  6.3095734e+09  1.0000000e+00  1.7465254e-26 
 7.9432823e+09  3.6408072e-04  1.3290667e-04  7.9432823e+09  1.0000000e+00  1.5005018e-26 
 1.0000000e+10  2.4889898e-04  5.8065888e-05  1.0000000e+10  1.0000000e+00  1.2638322e-26 
 1.2589254e+10  1.6575569e-04  1.8957913e-05  1.2589254e+10  1.0000000e+00  1.0492810e-26 
 1.5848932e+10  1.0837156e-04  1.8979091e-07  1.5848932e+10  1.0000000e+00  8.6384995e-27 
 1.9952623e+10  6.9974503e-05 -7.7444372e-06  1.9952623e+10  1.0000000e+00  7.0943982e-27 
 2.5118864e+10  4.4810278e-05 -1.0259207e-05  2.5118864e+10  1.0000000e+00  5.8473763e-27 
 3.1622777e+10  2.8541740e-05 -1.0257750e-05  3.1622777e+10  1.0000000e+00  4.8693579e-27 
 3.9810717e+10  1.8116611e-05 -9.2210702e-06  3.9810717e+10  1.0000000e+00  4.1287605e-27 
 5.0118723e+10  1.1473727e-05 -7.8675978e-06  5.0118723e+10  1.0000000e+00  3.5968529e-27 
 6.3095734e+10  7.2561294e-06 -6.5233001e-06  6.3095734e+10  1.0000000e+00  3.2508185e-27 
 7.9432823e+10  4.5844862e-06 -5.3194266e-06  7.9432823e+10  1.0000000e+00  3.0750372e-27 
 1.0000000e+11  2.8945851e-06 -4.2946004e-06  1.0000000e+11  1.0000000e+00  3.0615699e-27 
