 frequency      v(VOUT1)       v(VOUT1)      
 1.0000000e+00  7.5138665e-02 -9.9186783e-10 
 1.2589254e+00  7.5138665e-02 -1.2486876e-09 
 1.5848932e+00  7.5138665e-02 -1.5720046e-09 
 1.9952623e+00  7.5138665e-02 -1.9790365e-09 
 2.5118864e+00  7.5138665e-02 -2.4914594e-09 
 3.1622777e+00  7.5138665e-02 -3.1365615e-09 
 3.9810717e+00  7.5138665e-02 -3.9486970e-09 
 5.0118723e+00  7.5138665e-02 -4.9711150e-09 
 6.3095734e+00  7.5138665e-02 -6.2582629e-09 
 7.9432823e+00  7.5138665e-02 -7.8786863e-09 
 1.0000000e+01  7.5138665e-02 -9.9186783e-09 
 1.2589254e+01  7.5138665e-02 -1.2486876e-08 
 1.5848932e+01  7.5138665e-02 -1.5720046e-08 
 1.9952623e+01  7.5138665e-02 -1.9790365e-08 
 2.5118864e+01  7.5138665e-02 -2.4914594e-08 
 3.1622777e+01  7.5138665e-02 -3.1365615e-08 
 3.9810717e+01  7.5138665e-02 -3.9486970e-08 
 5.0118723e+01  7.5138665e-02 -4.9711150e-08 
 6.3095734e+01  7.5138665e-02 -6.2582629e-08 
 7.9432823e+01  7.5138665e-02 -7.8786863e-08 
 1.0000000e+02  7.5138665e-02 -9.9186783e-08 
 1.2589254e+02  7.5138665e-02 -1.2486876e-07 
 1.5848932e+02  7.5138665e-02 -1.5720046e-07 
 1.9952623e+02  7.5138665e-02 -1.9790365e-07 
 2.5118864e+02  7.5138665e-02 -2.4914594e-07 
 3.1622777e+02  7.5138665e-02 -3.1365615e-07 
 3.9810717e+02  7.5138665e-02 -3.9486970e-07 
 5.0118723e+02  7.5138665e-02 -4.9711150e-07 
 6.3095734e+02  7.5138665e-02 -6.2582629e-07 
 7.9432823e+02  7.5138665e-02 -7.8786863e-07 
 1.0000000e+03  7.5138665e-02 -9.9186783e-07 
 1.2589254e+03  7.5138665e-02 -1.2486876e-06 
 1.5848932e+03  7.5138665e-02 -1.5720046e-06 
 1.9952623e+03  7.5138665e-02 -1.9790365e-06 
 2.5118864e+03  7.5138665e-02 -2.4914594e-06 
 3.1622777e+03  7.5138665e-02 -3.1365615e-06 
 3.9810717e+03  7.5138665e-02 -3.9486970e-06 
 5.0118723e+03  7.5138665e-02 -4.9711149e-06 
 6.3095734e+03  7.5138665e-02 -6.2582629e-06 
 7.9432823e+03  7.5138665e-02 -7.8786862e-06 
 1.0000000e+04  7.5138664e-02 -9.9186782e-06 
 1.2589254e+04  7.5138663e-02 -1.2486876e-05 
 1.5848932e+04  7.5138662e-02 -1.5720045e-05 
 1.9952623e+04  7.5138660e-02 -1.9790364e-05 
 2.5118864e+04  7.5138657e-02 -2.4914591e-05 
 3.1622777e+04  7.5138652e-02 -3.1365609e-05 
 3.9810717e+04  7.5138645e-02 -3.9486959e-05 
 5.0118723e+04  7.5138632e-02 -4.9711128e-05 
 6.3095734e+04  7.5138613e-02 -6.2582586e-05 
 7.9432823e+04  7.5138583e-02 -7.8786776e-05 
 1.0000000e+05  7.5138534e-02 -9.9186610e-05 
 1.2589254e+05  7.5138458e-02 -1.2486842e-04 
 1.5848932e+05  7.5138336e-02 -1.5719977e-04 
 1.9952623e+05  7.5138144e-02 -1.9790228e-04 
 2.5118864e+05  7.5137839e-02 -2.4914319e-04 
 3.1622777e+05  7.5137355e-02 -3.1365068e-04 
 3.9810717e+05  7.5136589e-02 -3.9485878e-04 
 5.0118723e+05  7.5135375e-02 -4.9708971e-04 
 6.3095734e+05  7.5133450e-02 -6.2578283e-04 
 7.9432823e+05  7.5130400e-02 -7.8778191e-04 
 1.0000000e+06  7.5125566e-02 -9.9169482e-04 
 1.2589254e+06  7.5117907e-02 -1.2483424e-03 
 1.5848932e+06  7.5105771e-02 -1.5713160e-03 
 1.9952623e+06  7.5086545e-02 -1.9776629e-03 
 2.5118864e+06  7.5056093e-02 -2.4887197e-03 
 3.1622777e+06  7.5007882e-02 -3.1310987e-03 
 3.9810717e+06  7.4931598e-02 -3.9378085e-03 
 5.0118723e+06  7.4811014e-02 -4.9494245e-03 
 6.3095734e+06  7.4620695e-02 -6.2150950e-03 
 7.9432823e+06  7.4321037e-02 -7.7929009e-03 
 1.0000000e+07  7.3851011e-02 -9.7485972e-03 
 1.2589254e+07  7.3118136e-02 -1.2150889e-02 
 1.5848932e+07  7.1985959e-02 -1.5060051e-02 
 1.9952623e+07  7.0261723e-02 -1.8505065e-02 
 2.5118864e+07  6.7692100e-02 -2.2443933e-02 
 3.1622777e+07  6.3983657e-02 -2.6706247e-02 
 3.9810717e+07  5.8872472e-02 -3.0933487e-02 
 5.0118723e+07  5.2257462e-02 -3.4563826e-02 
 6.3095734e+07  4.4359834e-02 -3.6931341e-02 
 7.9432823e+07  3.5790619e-02 -3.7503010e-02 
 1.0000000e+08  2.7405503e-02 -3.6137921e-02 
 1.2589254e+08  1.9990388e-02 -3.3164611e-02 
 1.5848932e+08  1.3997574e-02 -2.9206273e-02 
 1.9952623e+08  9.4968818e-03 -2.4907109e-02 
 2.5118864e+08  6.2995990e-03 -2.0748081e-02 
 3.1622777e+08  4.1169088e-03 -1.7003345e-02 
 3.9810717e+08  2.6670522e-03 -1.3781957e-02 
 5.0118723e+08  1.7213991e-03 -1.1090246e-02 
 6.3095734e+08  1.1119288e-03 -8.8824259e-03 
 7.9432823e+08  7.2214513e-04 -7.0927127e-03 
 1.0000000e+09  4.7408916e-04 -5.6527223e-03 
 1.2589254e+09  3.1672375e-04 -4.4995811e-03 
 1.5848932e+09  2.1709112e-04 -3.5789043e-03 
 1.9952623e+09  1.5409054e-04 -2.8452162e-03 
 2.5118864e+09  1.1428532e-04 -2.2612365e-03 
 3.1622777e+09  8.9148171e-05 -1.7967672e-03 
 3.9810717e+09  7.3279033e-05 -1.4275266e-03 
 5.0118723e+09  6.3262830e-05 -1.1340783e-03 
 6.3095734e+09  5.6941658e-05 -9.0090924e-04 
 7.9432823e+09  5.2952720e-05 -7.1565938e-04 
 1.0000000e+10  5.0435651e-05 -5.6849219e-04 
 1.2589254e+10  4.8847401e-05 -4.5158484e-04 
 1.5848932e+10  4.7845246e-05 -3.5871879e-04 
 1.9952623e+10  4.7212914e-05 -2.8495220e-04 
 2.5118864e+10  4.6813930e-05 -2.2635853e-04 
 3.1622777e+10  4.6562181e-05 -1.7981837e-04 
 3.9810717e+10  4.6403329e-05 -1.4285374e-04 
 5.0118723e+10  4.6303086e-05 -1.1349636e-04 
 6.3095734e+10  4.6239816e-05 -9.0182960e-05 
 7.9432823e+10  4.6199862e-05 -7.1672075e-05 
 1.0000000e+11  4.6174599e-05 -5.6977960e-05 
